 time       v(FB)      v(REF)     v(UP)      v(DN)     
 0.000e+00  0.000e+00  0.000e+00  2.829e-07  2.825e-07 
 1.000e-13  0.000e+00  1.800e-04  6.045e-06  1.311e-06 
 2.000e-13  0.000e+00  3.600e-04  8.529e-06  1.524e-06 
 4.000e-13  0.000e+00  7.200e-04  1.236e-05  1.846e-06 
 8.000e-13  0.000e+00  1.440e-03  1.831e-05  2.405e-06 
 1.600e-12  0.000e+00  2.880e-03  2.647e-05  2.837e-06 
 3.200e-12  0.000e+00  5.760e-03  3.350e-05  2.491e-06 
 6.400e-12  0.000e+00  1.152e-02  3.582e-05  1.144e-06 
 1.280e-11  0.000e+00  2.304e-02  3.376e-05 -9.886e-08 
 2.280e-11  0.000e+00  4.104e-02  3.275e-05  1.538e-08 
 3.280e-11  0.000e+00  5.904e-02  3.189e-05  8.542e-08 
 4.280e-11  0.000e+00  7.704e-02  3.162e-05  1.857e-07 
 5.280e-11  0.000e+00  9.504e-02  3.128e-05  2.108e-07 
 6.280e-11  0.000e+00  1.130e-01  3.134e-05  2.636e-07 
 7.280e-11  0.000e+00  1.310e-01  3.126e-05  2.649e-07 
 8.280e-11  0.000e+00  1.490e-01  3.150e-05  2.981e-07 
 9.280e-11  0.000e+00  1.670e-01  3.158e-05  2.887e-07 
 1.028e-10  0.000e+00  1.850e-01  3.195e-05  3.140e-07 
 1.128e-10  0.000e+00  2.030e-01  3.215e-05  2.997e-07 
 1.228e-10  0.000e+00  2.210e-01  3.263e-05  3.218e-07 
 1.328e-10  0.000e+00  2.390e-01  3.295e-05  3.054e-07 
 1.428e-10  0.000e+00  2.570e-01  3.355e-05  3.263e-07 
 1.528e-10  0.000e+00  2.750e-01  3.399e-05  3.089e-07 
 1.628e-10  0.000e+00  2.930e-01  3.472e-05  3.296e-07 
 1.728e-10  0.000e+00  3.110e-01  3.530e-05  3.117e-07 
 1.828e-10  0.000e+00  3.290e-01  3.615e-05  3.323e-07 
 1.928e-10  0.000e+00  3.470e-01  3.685e-05  3.143e-07 
 2.028e-10  0.000e+00  3.650e-01  3.780e-05  3.349e-07 
 2.128e-10  0.000e+00  3.830e-01  3.857e-05  3.166e-07 
 2.228e-10  0.000e+00  4.010e-01  3.954e-05  3.370e-07 
 2.328e-10  0.000e+00  4.190e-01  4.025e-05  3.181e-07 
 2.428e-10  0.000e+00  4.370e-01  4.103e-05  3.378e-07 
 2.528e-10  0.000e+00  4.550e-01  4.136e-05  3.175e-07 
 2.628e-10  0.000e+00  4.730e-01  4.148e-05  3.353e-07 
 2.728e-10  0.000e+00  4.910e-01  4.077e-05  3.120e-07 
 2.828e-10  0.000e+00  5.090e-01  3.929e-05  3.256e-07 
 2.928e-10  0.000e+00  5.270e-01  3.624e-05  2.962e-07 
 3.028e-10  0.000e+00  5.450e-01  3.139e-05  3.015e-07 
 3.128e-10  0.000e+00  5.630e-01  2.362e-05  2.609e-07 
 3.228e-10  0.000e+00  5.810e-01  1.233e-05  2.513e-07 
 3.328e-10  0.000e+00  5.990e-01 -4.077e-06  1.913e-07 
 3.428e-10  0.000e+00  6.170e-01 -2.751e-05  1.644e-07 
 3.528e-10  0.000e+00  6.350e-01 -5.858e-05  8.018e-08 
 3.628e-10  0.000e+00  6.530e-01 -1.000e-04  1.505e-08 
 3.728e-10  0.000e+00  6.710e-01 -1.539e-04 -1.173e-07 
 3.828e-10  0.000e+00  6.890e-01 -2.222e-04 -2.254e-07 
 3.928e-10  0.000e+00  7.070e-01 -3.074e-04 -4.051e-07 
 4.028e-10  0.000e+00  7.250e-01 -4.112e-04 -5.620e-07 
 4.128e-10  0.000e+00  7.430e-01 -5.357e-04 -7.920e-07 
 4.228e-10  0.000e+00  7.610e-01 -6.822e-04 -9.967e-07 
 4.328e-10  0.000e+00  7.790e-01 -8.526e-04 -1.273e-06 
 4.428e-10  0.000e+00  7.970e-01 -1.048e-03 -1.522e-06 
 4.528e-10  0.000e+00  8.150e-01 -1.273e-03 -1.842e-06 
 4.628e-10  0.000e+00  8.330e-01 -1.529e-03 -2.134e-06 
 4.728e-10  0.000e+00  8.510e-01 -1.822e-03 -2.499e-06 
 4.828e-10  0.000e+00  8.690e-01 -2.158e-03 -2.841e-06 
 4.928e-10  0.000e+00  8.870e-01 -2.549e-03 -3.264e-06 
 5.028e-10  0.000e+00  9.050e-01 -3.009e-03 -3.678e-06 
 5.128e-10  0.000e+00  9.230e-01 -3.558e-03 -4.196e-06 
 5.228e-10  0.000e+00  9.410e-01 -4.223e-03 -4.748e-06 
 5.328e-10  0.000e+00  9.590e-01 -5.031e-03 -5.479e-06 
 5.428e-10  0.000e+00  9.770e-01 -5.990e-03 -6.367e-06 
 5.528e-10  0.000e+00  9.950e-01 -7.039e-03 -7.635e-06 
 5.628e-10  0.000e+00  1.013e+00 -7.882e-03 -9.331e-06 
 5.728e-10  0.000e+00  1.031e+00 -7.636e-03 -1.168e-05 
 5.828e-10  0.000e+00  1.049e+00 -4.398e-03 -1.455e-05 
 5.928e-10  0.000e+00  1.067e+00  4.788e-03 -1.744e-05 
 6.028e-10  0.000e+00  1.085e+00  2.597e-02 -1.855e-05 
 6.128e-10  0.000e+00  1.103e+00  7.810e-02 -1.475e-05 
 6.228e-10  0.000e+00  1.121e+00  2.259e-01 -4.830e-06 
 6.328e-10  0.000e+00  1.139e+00  5.072e-01  9.114e-06 
 6.428e-10  0.000e+00  1.157e+00  8.822e-01  1.895e-05 
 6.528e-10  0.000e+00  1.175e+00  1.297e+00  2.242e-05 
 6.628e-10  0.000e+00  1.193e+00  1.603e+00  2.455e-05 
 6.728e-10  0.000e+00  1.211e+00  1.719e+00  2.000e-05 
 6.828e-10  0.000e+00  1.229e+00  1.758e+00  1.241e-05 
 6.928e-10  0.000e+00  1.247e+00  1.772e+00  1.626e-05 
 7.028e-10  0.000e+00  1.265e+00  1.779e+00  1.374e-05 
 7.128e-10  0.000e+00  1.283e+00  1.785e+00  1.322e-05 
 7.228e-10  0.000e+00  1.301e+00  1.790e+00  9.318e-06 
 7.328e-10  0.000e+00  1.319e+00  1.793e+00  8.068e-06 
 7.428e-10  0.000e+00  1.337e+00  1.795e+00  4.868e-06 
 7.528e-10  0.000e+00  1.355e+00  1.797e+00  4.388e-06 
 7.628e-10  0.000e+00  1.373e+00  1.798e+00  2.128e-06 
 7.728e-10  0.000e+00  1.391e+00  1.799e+00  2.403e-06 
 7.828e-10  0.000e+00  1.409e+00  1.799e+00  7.584e-07 
 7.928e-10  0.000e+00  1.427e+00  1.799e+00  1.543e-06 
 8.028e-10  0.000e+00  1.445e+00  1.800e+00  1.768e-07 
 8.128e-10  0.000e+00  1.463e+00  1.800e+00  1.115e-06 
 8.228e-10  0.000e+00  1.481e+00  1.800e+00 -8.067e-08 
 8.328e-10  0.000e+00  1.499e+00  1.800e+00  9.585e-07 
 8.428e-10  0.000e+00  1.517e+00  1.800e+00 -1.851e-07 
 8.528e-10  0.000e+00  1.535e+00  1.800e+00  9.070e-07 
 8.628e-10  0.000e+00  1.553e+00  1.800e+00 -2.445e-07 
 8.728e-10  0.000e+00  1.571e+00  1.800e+00  8.598e-07 
 8.828e-10  0.000e+00  1.589e+00  1.800e+00 -2.708e-07 
 8.928e-10  0.000e+00  1.607e+00  1.800e+00  8.615e-07 
 9.028e-10  0.000e+00  1.625e+00  1.800e+00 -2.814e-07 
 9.128e-10  0.000e+00  1.643e+00  1.800e+00  8.972e-07 
 9.228e-10  0.000e+00  1.661e+00  1.800e+00 -2.665e-07 
 9.328e-10  0.000e+00  1.679e+00  1.800e+00  8.844e-07 
 9.428e-10  0.000e+00  1.697e+00  1.800e+00 -2.610e-07 
 9.528e-10  0.000e+00  1.715e+00  1.800e+00  8.789e-07 
 9.628e-10  0.000e+00  1.733e+00  1.800e+00 -2.574e-07 
 9.728e-10  0.000e+00  1.751e+00  1.800e+00  8.750e-07 
 9.828e-10  0.000e+00  1.769e+00  1.800e+00 -2.540e-07 
 9.928e-10  0.000e+00  1.787e+00  1.800e+00  8.712e-07 
 1.000e-09  0.000e+00  1.800e+00  1.800e+00 -2.475e-07 
 1.001e-09  0.000e+00  1.800e+00  1.800e+00 -5.623e-07 
 1.003e-09  0.000e+00  1.800e+00  1.800e+00 -7.301e-07 
 1.007e-09  0.000e+00  1.800e+00  1.800e+00 -1.195e-07 
 1.015e-09  0.000e+00  1.800e+00  1.800e+00  4.860e-07 
 1.025e-09  0.000e+00  1.800e+00  1.800e+00  4.412e-07 
 1.035e-09  0.000e+00  1.800e+00  1.800e+00  4.244e-07 
 1.045e-09  0.000e+00  1.800e+00  1.800e+00  3.293e-07 
 1.055e-09  0.000e+00  1.800e+00  1.800e+00  3.420e-07 
 1.065e-09  0.000e+00  1.800e+00  1.800e+00  2.814e-07 
 1.075e-09  0.000e+00  1.800e+00  1.800e+00  3.133e-07 
 1.085e-09  0.000e+00  1.800e+00  1.800e+00  2.661e-07 
 1.095e-09  0.000e+00  1.800e+00  1.800e+00  3.034e-07 
 1.105e-09  0.000e+00  1.800e+00  1.800e+00  2.616e-07 
 1.115e-09  0.000e+00  1.800e+00  1.800e+00  3.005e-07 
 1.125e-09  0.000e+00  1.800e+00  1.800e+00  2.606e-07 
 1.135e-09  0.000e+00  1.800e+00  1.800e+00  2.991e-07 
 1.145e-09  0.000e+00  1.800e+00  1.800e+00  2.612e-07 
 1.155e-09  0.000e+00  1.800e+00  1.800e+00  2.979e-07 
 1.165e-09  0.000e+00  1.800e+00  1.800e+00  2.617e-07 
 1.175e-09  0.000e+00  1.800e+00  1.800e+00  2.972e-07 
 1.185e-09  0.000e+00  1.800e+00  1.800e+00  2.622e-07 
 1.195e-09  0.000e+00  1.800e+00  1.800e+00  2.966e-07 
 1.205e-09  0.000e+00  1.800e+00  1.800e+00  2.627e-07 
 1.215e-09  0.000e+00  1.800e+00  1.800e+00  2.961e-07 
 1.225e-09  0.000e+00  1.800e+00  1.800e+00  2.633e-07 
 1.235e-09  0.000e+00  1.800e+00  1.800e+00  2.955e-07 
 1.245e-09  0.000e+00  1.800e+00  1.800e+00  2.638e-07 
 1.255e-09  0.000e+00  1.800e+00  1.800e+00  2.950e-07 
 1.265e-09  0.000e+00  1.800e+00  1.800e+00  2.643e-07 
 1.275e-09  0.000e+00  1.800e+00  1.800e+00  2.945e-07 
 1.285e-09  0.000e+00  1.800e+00  1.800e+00  2.648e-07 
 1.295e-09  0.000e+00  1.800e+00  1.800e+00  2.940e-07 
 1.305e-09  0.000e+00  1.800e+00  1.800e+00  2.653e-07 
 1.315e-09  0.000e+00  1.800e+00  1.800e+00  2.936e-07 
 1.325e-09  0.000e+00  1.800e+00  1.800e+00  2.658e-07 
 1.335e-09  0.000e+00  1.800e+00  1.800e+00  2.931e-07 
 1.345e-09  0.000e+00  1.800e+00  1.800e+00  2.662e-07 
 1.355e-09  0.000e+00  1.800e+00  1.800e+00  2.927e-07 
 1.365e-09  0.000e+00  1.800e+00  1.800e+00  2.666e-07 
 1.375e-09  0.000e+00  1.800e+00  1.800e+00  2.923e-07 
 1.385e-09  0.000e+00  1.800e+00  1.800e+00  2.670e-07 
 1.395e-09  0.000e+00  1.800e+00  1.800e+00  2.920e-07 
 1.405e-09  0.000e+00  1.800e+00  1.800e+00  2.674e-07 
 1.415e-09  0.000e+00  1.800e+00  1.800e+00  2.916e-07 
 1.425e-09  0.000e+00  1.800e+00  1.800e+00  2.679e-07 
 1.435e-09  0.000e+00  1.800e+00  1.800e+00  2.912e-07 
 1.445e-09  0.000e+00  1.800e+00  1.800e+00  2.682e-07 
 1.455e-09  0.000e+00  1.800e+00  1.800e+00  2.908e-07 
 1.465e-09  0.000e+00  1.800e+00  1.800e+00  2.686e-07 
 1.475e-09  0.000e+00  1.800e+00  1.800e+00  2.905e-07 
 1.485e-09  0.000e+00  1.800e+00  1.800e+00  2.689e-07 
 1.495e-09  0.000e+00  1.800e+00  1.800e+00  2.902e-07 
 1.505e-09  0.000e+00  1.800e+00  1.800e+00  2.692e-07 
 1.515e-09  0.000e+00  1.800e+00  1.800e+00  2.899e-07 
 1.525e-09  0.000e+00  1.800e+00  1.800e+00  2.695e-07 
 1.535e-09  0.000e+00  1.800e+00  1.800e+00  2.896e-07 
 1.545e-09  0.000e+00  1.800e+00  1.800e+00  2.698e-07 
 1.555e-09  0.000e+00  1.800e+00  1.800e+00  2.893e-07 
 1.565e-09  0.000e+00  1.800e+00  1.800e+00  2.701e-07 
 1.575e-09  0.000e+00  1.800e+00  1.800e+00  2.890e-07 
 1.585e-09  0.000e+00  1.800e+00  1.800e+00  2.704e-07 
 1.595e-09  0.000e+00  1.800e+00  1.800e+00  2.887e-07 
 1.605e-09  0.000e+00  1.800e+00  1.800e+00  2.707e-07 
 1.615e-09  0.000e+00  1.800e+00  1.800e+00  2.885e-07 
 1.625e-09  0.000e+00  1.800e+00  1.800e+00  2.710e-07 
 1.635e-09  0.000e+00  1.800e+00  1.800e+00  2.883e-07 
 1.645e-09  0.000e+00  1.800e+00  1.800e+00  2.712e-07 
 1.655e-09  0.000e+00  1.800e+00  1.800e+00  2.880e-07 
 1.665e-09  0.000e+00  1.800e+00  1.800e+00  2.714e-07 
 1.675e-09  0.000e+00  1.800e+00  1.800e+00  2.878e-07 
 1.685e-09  0.000e+00  1.800e+00  1.800e+00  2.716e-07 
 1.695e-09  0.000e+00  1.800e+00  1.800e+00  2.876e-07 
 1.705e-09  0.000e+00  1.800e+00  1.800e+00  2.719e-07 
 1.715e-09  0.000e+00  1.800e+00  1.800e+00  2.874e-07 
 1.725e-09  0.000e+00  1.800e+00  1.800e+00  2.721e-07 
 1.735e-09  0.000e+00  1.800e+00  1.800e+00  2.872e-07 
 1.745e-09  0.000e+00  1.800e+00  1.800e+00  2.723e-07 
 1.755e-09  0.000e+00  1.800e+00  1.800e+00  2.870e-07 
 1.765e-09  0.000e+00  1.800e+00  1.800e+00  2.725e-07 
 1.775e-09  0.000e+00  1.800e+00  1.800e+00  2.868e-07 
 1.785e-09  0.000e+00  1.800e+00  1.800e+00  2.726e-07 
 1.795e-09  0.000e+00  1.800e+00  1.800e+00  2.866e-07 
 1.805e-09  0.000e+00  1.800e+00  1.800e+00  2.728e-07 
 1.815e-09  0.000e+00  1.800e+00  1.800e+00  2.864e-07 
 1.825e-09  0.000e+00  1.800e+00  1.800e+00  2.730e-07 
 1.835e-09  0.000e+00  1.800e+00  1.800e+00  2.863e-07 
 1.845e-09  0.000e+00  1.800e+00  1.800e+00  2.732e-07 
 1.855e-09  0.000e+00  1.800e+00  1.800e+00  2.861e-07 
 1.865e-09  0.000e+00  1.800e+00  1.800e+00  2.733e-07 
 1.875e-09  0.000e+00  1.800e+00  1.800e+00  2.860e-07 
 1.885e-09  0.000e+00  1.800e+00  1.800e+00  2.735e-07 
 1.895e-09  0.000e+00  1.800e+00  1.800e+00  2.858e-07 
 1.905e-09  0.000e+00  1.800e+00  1.800e+00  2.736e-07 
 1.915e-09  0.000e+00  1.800e+00  1.800e+00  2.857e-07 
 1.925e-09  0.000e+00  1.800e+00  1.800e+00  2.738e-07 
 1.935e-09  0.000e+00  1.800e+00  1.800e+00  2.855e-07 
 1.945e-09  0.000e+00  1.800e+00  1.800e+00  2.739e-07 
 1.955e-09  0.000e+00  1.800e+00  1.800e+00  2.854e-07 
 1.965e-09  0.000e+00  1.800e+00  1.800e+00  2.740e-07 
 1.975e-09  0.000e+00  1.800e+00  1.800e+00  2.852e-07 
 1.985e-09  0.000e+00  1.800e+00  1.800e+00  2.742e-07 
 1.995e-09  0.000e+00  1.800e+00  1.800e+00  2.851e-07 
 2.000e-09  0.000e+00  1.800e+00  1.800e+00  2.743e-07 
 2.001e-09  1.800e-03  1.800e+00  1.800e+00  1.830e-05 
 2.003e-09  5.400e-03  1.800e+00  1.800e+00  3.421e-05 
 2.007e-09  1.260e-02  1.800e+00  1.800e+00  3.689e-05 
 2.015e-09  2.700e-02  1.800e+00  1.800e+00  3.346e-05 
 2.025e-09  4.500e-02  1.800e+00  1.800e+00  3.245e-05 
 2.035e-09  6.300e-02  1.800e+00  1.800e+00  3.156e-05 
 2.045e-09  8.100e-02  1.800e+00  1.800e+00  3.130e-05 
 2.055e-09  9.900e-02  1.800e+00  1.800e+00  3.117e-05 
 2.065e-09  1.170e-01  1.800e+00  1.800e+00  3.115e-05 
 2.075e-09  1.350e-01  1.800e+00  1.800e+00  3.128e-05 
 2.085e-09  1.530e-01  1.800e+00  1.800e+00  3.139e-05 
 2.095e-09  1.710e-01  1.800e+00  1.800e+00  3.167e-05 
 2.105e-09  1.890e-01  1.800e+00  1.800e+00  3.189e-05 
 2.115e-09  2.070e-01  1.800e+00  1.800e+00  3.228e-05 
 2.125e-09  2.250e-01  1.800e+00  1.800e+00  3.261e-05 
 2.135e-09  2.430e-01  1.800e+00  1.800e+00  3.312e-05 
 2.145e-09  2.610e-01  1.800e+00  1.800e+00  3.356e-05 
 2.155e-09  2.790e-01  1.800e+00  1.800e+00  3.420e-05 
 2.165e-09  2.970e-01  1.800e+00  1.800e+00  3.476e-05 
 2.175e-09  3.150e-01  1.800e+00  1.800e+00  3.553e-05 
 2.185e-09  3.330e-01  1.800e+00  1.800e+00  3.621e-05 
 2.195e-09  3.510e-01  1.800e+00  1.800e+00  3.710e-05 
 2.205e-09  3.690e-01  1.800e+00  1.800e+00  3.789e-05 
 2.215e-09  3.870e-01  1.800e+00  1.800e+00  3.884e-05 
 2.225e-09  4.050e-01  1.800e+00  1.800e+00  3.962e-05 
 2.235e-09  4.230e-01  1.800e+00  1.800e+00  4.049e-05 
 2.245e-09  4.410e-01  1.800e+00  1.800e+00  4.105e-05 
 2.255e-09  4.590e-01  1.800e+00  1.800e+00  4.148e-05 
 2.265e-09  4.770e-01  1.800e+00  1.800e+00  4.130e-05 
 2.275e-09  4.950e-01  1.800e+00  1.800e+00  4.058e-05 
 2.285e-09  5.130e-01  1.800e+00  1.800e+00  3.866e-05 
 2.295e-09  5.310e-01  1.800e+00  1.800e+00  3.539e-05 
 2.305e-09  5.490e-01  1.800e+00  1.800e+00  2.983e-05 
 2.315e-09  5.670e-01  1.800e+00  1.800e+00  2.149e-05 
 2.325e-09  5.850e-01  1.800e+00  1.800e+00  9.040e-06 
 2.335e-09  6.030e-01  1.800e+00  1.800e+00 -8.863e-06 
 2.345e-09  6.210e-01  1.800e+00  1.800e+00 -3.380e-05 
 2.355e-09  6.390e-01  1.800e+00  1.800e+00 -6.684e-05 
 2.365e-09  6.570e-01  1.800e+00  1.800e+00 -1.110e-04 
 2.375e-09  6.750e-01  1.800e+00  1.800e+00 -1.678e-04 
 2.385e-09  6.930e-01  1.800e+00  1.800e+00 -2.399e-04 
 2.395e-09  7.110e-01  1.800e+00  1.800e+00 -3.290e-04 
 2.405e-09  7.290e-01  1.800e+00  1.800e+00 -4.374e-04 
 2.415e-09  7.470e-01  1.800e+00  1.800e+00 -5.664e-04 
 2.425e-09  7.650e-01  1.800e+00  1.800e+00 -7.183e-04 
 2.435e-09  7.830e-01  1.800e+00  1.800e+00 -8.940e-04 
 2.445e-09  8.010e-01  1.800e+00  1.800e+00 -1.096e-03 
 2.455e-09  8.190e-01  1.800e+00  1.800e+00 -1.327e-03 
 2.465e-09  8.370e-01  1.800e+00  1.800e+00 -1.591e-03 
 2.475e-09  8.550e-01  1.800e+00  1.800e+00 -1.893e-03 
 2.485e-09  8.730e-01  1.800e+00  1.800e+00 -2.240e-03 
 2.495e-09  8.910e-01  1.800e+00  1.800e+00 -2.645e-03 
 2.505e-09  9.090e-01  1.800e+00  1.800e+00 -3.122e-03 
 2.515e-09  9.270e-01  1.800e+00  1.800e+00 -3.693e-03 
 2.525e-09  9.450e-01  1.800e+00  1.800e+00 -4.385e-03 
 2.535e-09  9.630e-01  1.800e+00  1.800e+00 -5.220e-03 
 2.545e-09  9.810e-01  1.800e+00  1.800e+00 -6.201e-03 
 2.555e-09  9.990e-01  1.800e+00  1.800e+00 -7.234e-03 
 2.565e-09  1.017e+00  1.800e+00  1.800e+00 -7.935e-03 
 2.575e-09  1.035e+00  1.800e+00  1.800e+00 -7.259e-03 
 2.585e-09  1.053e+00  1.800e+00  1.800e+00 -3.091e-03 
 2.595e-09  1.071e+00  1.800e+00  1.800e+00  7.700e-03 
 2.605e-09  1.089e+00  1.800e+00  1.800e+00  3.299e-02 
 2.615e-09  1.107e+00  1.800e+00  1.800e+00  9.781e-02 
 2.625e-09  1.125e+00  1.800e+00  1.800e+00  2.767e-01 
 2.635e-09  1.143e+00  1.800e+00  1.800e+00  5.888e-01 
 2.645e-09  1.161e+00  1.800e+00  1.800e+00  9.894e-01 
 2.655e-09  1.179e+00  1.800e+00  1.800e+00  1.412e+00 
 2.665e-09  1.197e+00  1.800e+00  1.800e+00  1.654e+00 
 2.675e-09  1.215e+00  1.800e+00  1.800e+00  1.737e+00 
 2.685e-09  1.233e+00  1.800e+00  1.800e+00  1.764e+00 
 2.695e-09  1.251e+00  1.800e+00  1.800e+00  1.776e+00 
 2.705e-09  1.269e+00  1.800e+00  1.800e+00  1.783e+00 
 2.715e-09  1.287e+00  1.800e+00  1.800e+00  1.789e+00 
 2.725e-09  1.305e+00  1.800e+00  1.800e+00  1.793e+00 
 2.735e-09  1.323e+00  1.800e+00  1.800e+00  1.796e+00 
 2.745e-09  1.341e+00  1.800e+00  1.800e+00  1.797e+00 
 2.755e-09  1.359e+00  1.800e+00  1.800e+00  1.798e+00 
 2.765e-09  1.377e+00  1.800e+00  1.800e+00  1.799e+00 
 2.775e-09  1.395e+00  1.800e+00  1.799e+00  1.799e+00 
 2.785e-09  1.413e+00  1.800e+00  1.798e+00  1.798e+00 
 2.795e-09  1.431e+00  1.800e+00  1.797e+00  1.797e+00 
 2.805e-09  1.449e+00  1.800e+00  1.801e+00  1.803e+00 
 2.815e-09  1.467e+00  1.800e+00  1.821e+00  1.824e+00 
 2.825e-09  1.485e+00  1.800e+00  1.858e+00  1.865e+00 
 2.835e-09  1.503e+00  1.800e+00  1.906e+00  1.925e+00 
 2.845e-09  1.521e+00  1.800e+00  1.895e+00  1.852e+00 
 2.855e-09  1.539e+00  1.800e+00  1.454e+00  1.097e+00 
 2.865e-09  1.557e+00  1.800e+00  3.221e-01  1.341e-01 
 2.875e-09  1.575e+00  1.800e+00 -3.051e-02 -2.864e-02 
 2.885e-09  1.593e+00  1.800e+00  2.500e-02  2.223e-02 
 2.895e-09  1.611e+00  1.800e+00 -6.647e-03 -6.891e-03 
 2.905e-09  1.629e+00  1.800e+00  6.384e-03  6.368e-03 
 2.915e-09  1.647e+00  1.800e+00 -1.778e-03 -2.253e-03 
 2.925e-09  1.665e+00  1.800e+00  1.409e-03  1.862e-03 
 2.935e-09  1.683e+00  1.800e+00 -2.092e-04 -7.751e-04 
 2.945e-09  1.701e+00  1.800e+00  5.974e-06  5.745e-04 
 2.955e-09  1.719e+00  1.800e+00  3.236e-04 -2.626e-04 
 2.965e-09  1.737e+00  1.800e+00 -4.088e-04  1.860e-04 
 2.975e-09  1.755e+00  1.800e+00  5.144e-04 -8.794e-05 
 2.985e-09  1.773e+00  1.800e+00 -5.389e-04  6.356e-05 
 2.995e-09  1.791e+00  1.800e+00  5.770e-04 -2.918e-05 
 3.000e-09  1.800e+00  1.800e+00 -5.876e-04  1.504e-05 
 3.001e-09  1.800e+00  1.800e+00  3.699e-05 -7.970e-06 
 3.003e-09  1.800e+00  1.800e+00  1.496e-05 -2.996e-05 
 3.007e-09  1.800e+00  1.800e+00 -1.618e-06 -1.431e-05 
 3.015e-09  1.800e+00  1.800e+00  1.002e-05  3.215e-06 
 3.025e-09  1.800e+00  1.800e+00 -1.101e-06  1.239e-05 
 3.035e-09  1.800e+00  1.800e+00  7.736e-06  1.215e-05 
 3.045e-09  1.800e+00  1.800e+00 -1.675e-06  1.222e-05 
 3.055e-09  1.800e+00  1.800e+00  6.939e-06  9.111e-06 
 3.065e-09  1.800e+00  1.800e+00 -2.196e-06  8.773e-06 
 3.075e-09  1.800e+00  1.800e+00  6.545e-06  6.153e-06 
 3.085e-09  1.800e+00  1.800e+00 -2.626e-06  6.226e-06 
 3.095e-09  1.800e+00  1.800e+00  6.310e-06  4.244e-06 
 3.105e-09  1.800e+00  1.800e+00 -2.970e-06  4.582e-06 
 3.115e-09  1.800e+00  1.800e+00  6.155e-06  3.057e-06 
 3.125e-09  1.800e+00  1.800e+00 -3.246e-06  3.506e-06 
 3.135e-09  1.800e+00  1.800e+00  6.047e-06  2.297e-06 
 3.145e-09  1.800e+00  1.800e+00 -3.469e-06  2.771e-06 
 3.155e-09  1.800e+00  1.800e+00  5.970e-06  1.791e-06 
 3.165e-09  1.800e+00  1.800e+00 -3.652e-06  2.246e-06 
 3.175e-09  1.800e+00  1.800e+00  5.915e-06  1.441e-06 
 3.185e-09  1.800e+00  1.800e+00 -3.805e-06  1.857e-06 
 3.195e-09  1.800e+00  1.800e+00  5.875e-06  1.191e-06 
 3.205e-09  1.800e+00  1.800e+00 -3.934e-06  1.560e-06 
 3.215e-09  1.800e+00  1.800e+00  5.846e-06  1.008e-06 
 3.225e-09  1.800e+00  1.800e+00 -4.043e-06  1.328e-06 
 3.235e-09  1.800e+00  1.800e+00  5.825e-06  8.701e-07 
 3.245e-09  1.800e+00  1.800e+00 -4.137e-06  1.143e-06 
 3.255e-09  1.800e+00  1.800e+00  5.809e-06  7.649e-07 
 3.265e-09  1.800e+00  1.800e+00 -4.217e-06  9.927e-07 
 3.275e-09  1.800e+00  1.800e+00  5.797e-06  6.829e-07 
 3.285e-09  1.800e+00  1.800e+00 -4.287e-06  8.693e-07 
 3.295e-09  1.800e+00  1.800e+00  5.788e-06  6.179e-07 
 3.305e-09  1.800e+00  1.800e+00 -4.347e-06  7.668e-07 
 3.315e-09  1.800e+00  1.800e+00  5.781e-06  5.655e-07 
 3.325e-09  1.800e+00  1.800e+00 -4.400e-06  6.808e-07 
 3.335e-09  1.800e+00  1.800e+00  5.774e-06  5.226e-07 
 3.345e-09  1.800e+00  1.800e+00 -4.445e-06  6.081e-07 
 3.355e-09  1.800e+00  1.800e+00  5.768e-06  4.870e-07 
 3.365e-09  1.800e+00  1.800e+00 -4.484e-06  5.463e-07 
 3.375e-09  1.800e+00  1.800e+00  5.761e-06  4.571e-07 
 3.385e-09  1.800e+00  1.800e+00 -4.517e-06  4.934e-07 
 3.395e-09  1.800e+00  1.800e+00  5.755e-06  4.315e-07 
